T3B60 000:006.588   SEGGER J-Link V7.82 Log File
T3B60 000:006.696   DLL Compiled: Oct 13 2022 13:32:51
T3B60 000:006.707   Logging started @ 2024-03-21 13:10
T3B60 000:006.718 - 6.724ms
T3B60 000:006.735 JLINK_SetWarnOutHandler(...)
T3B60 000:006.747 - 0.018ms
T3B60 000:006.760 JLINK_OpenEx(...)
T3B60 000:008.491   Firmware: J-Link ARM V8 compiled Nov 28 2014 13:44:46
T3B60 000:008.888   Firmware: J-Link ARM V8 compiled Nov 28 2014 13:44:46
T3B60 000:011.280   Hardware: V8.00
T3B60 000:011.302   S/N: 788580430
T3B60 000:011.330   OEM: SEGGER
T3B60 000:011.347   Feature(s): RDI,FlashDL,FlashBP,JFlash,GDB
T3B60 000:012.445   TELNET listener socket opened on port 19021
T3B60 000:012.516   WEBSRV WEBSRV_Init(): Starting webserver thread(s)
T3B60 000:012.642   WEBSRV Webserver running on local port 19080
T3B60 000:036.822 - 30.077ms returns "O.K."
T3B60 000:036.866 JLINK_GetEmuCaps()
T3B60 000:036.880 - 0.019ms returns 0xB9FF7BBF
T3B60 000:036.896 JLINK_TIF_GetAvailable(...)
T3B60 000:037.076 - 0.192ms
T3B60 000:037.101 JLINK_SetErrorOutHandler(...)
T3B60 000:037.112 - 0.017ms
T3B60 000:037.145 JLINK_ExecCommand("ProjectFile = "D:\c1-327\2023¹úÈü\OLEDÏÔÊ¾\USER\JLinkSettings.ini"", ...). 
T3B60 000:047.873 - 10.741ms returns 0x00
T3B60 000:051.507 JLINK_ExecCommand("Device = STM32F103ZE", ...). 
T3B60 000:054.440   Device "STM32F103ZE" selected.
T3B60 000:054.760 - 3.240ms returns 0x00
T3B60 000:054.779 JLINK_ExecCommand("DisableConnectionTimeout", ...). 
T3B60 000:054.792 - 0.006ms returns 0x01
T3B60 000:054.804 JLINK_GetHardwareVersion()
T3B60 000:054.815 - 0.016ms returns 80000
T3B60 000:054.829 JLINK_GetDLLVersion()
T3B60 000:054.840 - 0.016ms returns 78200
T3B60 000:054.851 JLINK_GetOEMString(...)
T3B60 000:054.863 JLINK_GetFirmwareString(...)
T3B60 000:054.874 - 0.016ms
T3B60 000:062.275 JLINK_GetDLLVersion()
T3B60 000:062.300 - 0.031ms returns 78200
T3B60 000:062.313 JLINK_GetCompileDateTime()
T3B60 000:062.323 - 0.016ms
T3B60 000:064.716 JLINK_GetFirmwareString(...)
T3B60 000:064.739 - 0.028ms
T3B60 000:066.891 JLINK_GetHardwareVersion()
T3B60 000:066.912 - 0.026ms returns 80000
T3B60 000:069.013 JLINK_GetSN()
T3B60 000:069.033 - 0.025ms returns 788580430
T3B60 000:071.074 JLINK_GetOEMString(...)
T3B60 000:075.181 JLINK_TIF_Select(JLINKARM_TIF_SWD)
T3B60 000:075.888 - 0.720ms returns 0x00
T3B60 000:075.910 JLINK_HasError()
T3B60 000:075.935 JLINK_SetSpeed(5000)
T3B60 000:076.002 - 0.080ms
T3B60 000:076.024 JLINK_GetId()
T3B60 000:078.459   InitTarget() start
T3B60 000:078.491    J-Link Script File: Executing InitTarget()
T3B60 000:095.456   InitTarget() end
T3B60 000:098.789   Found SW-DP with ID 0x2BA01477
T3B60 000:102.288   Old FW that does not support reading DPIDR via DAP jobs
T3B60 000:108.956   DPv0 detected
T3B60 000:111.363   CoreSight SoC-400 or earlier
T3B60 000:113.562   Scanning AP map to find all available APs
T3B60 000:118.661   AP[1]: Stopped AP scan as end of AP map has been reached
T3B60 000:122.314   AP[0]: AHB-AP (IDR: 0x24770011)
T3B60 000:124.945   Iterating through AP map to find AHB-AP to use
T3B60 000:131.984   AP[0]: Core found
T3B60 000:134.871   AP[0]: AHB-AP ROM base: 0xE00FF000
T3B60 000:140.303   CPUID register: 0x412FC231. Implementer code: 0x41 (ARM)
T3B60 000:143.842   Found Cortex-M3 r2p1, Little endian.
T3B60 000:144.230   -- Max. mem block: 0x00002408
T3B60 000:144.354   CPU_ReadMem(4 bytes @ 0xE000EDF0)
T3B60 000:144.856   CPU_ReadMem(4 bytes @ 0xE0002000)
T3B60 000:148.231   FPUnit: 6 code (BP) slots and 2 literal slots
T3B60 000:148.260   CPU_ReadMem(4 bytes @ 0xE000EDFC)
T3B60 000:148.661   CPU_WriteMem(4 bytes @ 0xE000EDFC)
T3B60 000:149.001   CPU_ReadMem(4 bytes @ 0xE0001000)
T3B60 000:149.378   CPU_WriteMem(4 bytes @ 0xE0001000)
T3B60 000:149.754   CPU_ReadMem(4 bytes @ 0xE000ED88)
T3B60 000:150.117   CPU_WriteMem(4 bytes @ 0xE000ED88)
T3B60 000:150.479   CPU_ReadMem(4 bytes @ 0xE000ED88)
T3B60 000:150.804   CPU_WriteMem(4 bytes @ 0xE000ED88)
T3B60 000:155.065   CoreSight components:
T3B60 000:158.003   ROMTbl[0] @ E00FF000
T3B60 000:158.073   CPU_ReadMem(64 bytes @ 0xE00FF000)
T3B60 000:158.838   CPU_ReadMem(32 bytes @ 0xE000EFE0)
T3B60 000:162.233   [0][0]: E000E000 CID B105E00D PID 000BB000 SCS
T3B60 000:162.263   CPU_ReadMem(32 bytes @ 0xE0001FE0)
T3B60 000:165.123   [0][1]: E0001000 CID B105E00D PID 003BB002 DWT
T3B60 000:165.153   CPU_ReadMem(32 bytes @ 0xE0002FE0)
T3B60 000:168.097   [0][2]: E0002000 CID B105E00D PID 002BB003 FPB
T3B60 000:168.124   CPU_ReadMem(32 bytes @ 0xE0000FE0)
T3B60 000:171.611   [0][3]: E0000000 CID B105E00D PID 003BB001 ITM
T3B60 000:171.647   CPU_ReadMem(32 bytes @ 0xE0040FE0)
T3B60 000:174.886   [0][4]: E0040000 CID B105900D PID 003BB923 TPIU-Lite
T3B60 000:175.333 - 99.316ms returns 0x2BA01477
T3B60 000:175.354 JLINK_GetDLLVersion()
T3B60 000:175.366 - 0.016ms returns 78200
T3B60 000:175.380 JLINK_CORE_GetFound()
T3B60 000:175.391 - 0.016ms returns 0x30000FF
T3B60 000:175.404 JLINK_GetDebugInfo(0x100 = JLINKARM_ROM_TABLE_ADDR_INDEX)
T3B60 000:175.420   Value=0xE00FF000
T3B60 000:175.436 - 0.036ms returns 0
T3B60 000:178.174 JLINK_GetDebugInfo(0x100 = JLINKARM_ROM_TABLE_ADDR_INDEX)
T3B60 000:178.193   Value=0xE00FF000
T3B60 000:178.209 - 0.040ms returns 0
T3B60 000:178.221 JLINK_GetDebugInfo(0x101 = JLINKARM_DEBUG_INFO_ETM_ADDR_INDEX)
T3B60 000:178.232   Value=0x00000000
T3B60 000:178.248 - 0.032ms returns 0
T3B60 000:178.266 JLINK_ReadMemEx(0xE0041FF0, 0x10 Bytes, Flags = 0x02000004)
T3B60 000:178.294   CPU_ReadMem(16 bytes @ 0xE0041FF0)
T3B60 000:178.766   Data:  00 00 00 00 00 00 00 00 00 00 00 00 00 00 00 00
T3B60 000:178.784 - 0.524ms returns 16 (0x10)
T3B60 000:178.797 JLINK_GetDebugInfo(0x102 = JLINKARM_DEBUG_INFO_MTB_ADDR_INDEX)
T3B60 000:178.808   Value=0x00000000
T3B60 000:178.824 - 0.032ms returns 0
T3B60 000:178.836 JLINK_GetDebugInfo(0x103 = JLINKARM_DEBUG_INFO_TPIU_ADDR_INDEX)
T3B60 000:178.847   Value=0xE0040000
T3B60 000:178.863 - 0.032ms returns 0
T3B60 000:178.874 JLINK_GetDebugInfo(0x104 = JLINKARM_DEBUG_INFO_ITM_ADDR_INDEX)
T3B60 000:178.885   Value=0xE0000000
T3B60 000:178.901 - 0.032ms returns 0
T3B60 000:178.912 JLINK_GetDebugInfo(0x105 = JLINKARM_DEBUG_INFO_DWT_ADDR_INDEX)
T3B60 000:178.923   Value=0xE0001000
T3B60 000:178.939 - 0.032ms returns 0
T3B60 000:178.957 JLINK_GetDebugInfo(0x106 = JLINKARM_DEBUG_INFO_FPB_ADDR_INDEX)
T3B60 000:178.969   Value=0xE0002000
T3B60 000:178.984 - 0.032ms returns 0
T3B60 000:178.996 JLINK_GetDebugInfo(0x107 = JLINKARM_DEBUG_INFO_NVIC_ADDR_INDEX)
T3B60 000:179.007   Value=0xE000E000
T3B60 000:179.022 - 0.031ms returns 0
T3B60 000:179.033 JLINK_GetDebugInfo(0x10C = JLINKARM_DEBUG_INFO_DBG_ADDR_INDEX)
T3B60 000:179.044   Value=0xE000EDF0
T3B60 000:179.060 - 0.031ms returns 0
T3B60 000:179.071 JLINK_GetDebugInfo(0x01 = Unknown)
T3B60 000:179.085   Value=0x00000000
T3B60 000:179.101 - 0.034ms returns 0
T3B60 000:179.112 JLINK_ReadMemU32(0xE000ED00, 0x1 Items)
T3B60 000:179.127   CPU_ReadMem(4 bytes @ 0xE000ED00)
T3B60 000:179.501   Data:  31 C2 2F 41
T3B60 000:179.518   Debug reg: CPUID
T3B60 000:179.534 - 0.426ms returns 1 (0x1)
T3B60 000:179.546 JLINK_GetDebugInfo(0x10F = JLINKARM_DEBUG_INFO_HAS_CORTEX_M_SECURITY_EXT_INDEX)
T3B60 000:179.557   Value=0x00000000
T3B60 000:179.573 - 0.032ms returns 0
T3B60 000:179.585 JLINK_HasError()
T3B60 000:179.597 JLINK_SetResetType(JLINKARM_CM3_RESET_TYPE_NORMAL)
T3B60 000:179.608 - 0.016ms returns JLINKARM_CM3_RESET_TYPE_NORMAL
T3B60 000:179.619 JLINK_Reset()
T3B60 000:179.641   CPU is running
T3B60 000:179.658   CPU_WriteMem(4 bytes @ 0xE000EDF0)
T3B60 000:180.040   CPU is running
T3B60 000:180.065   CPU_WriteMem(4 bytes @ 0xE000EDFC)
T3B60 000:183.001   Reset: Halt core after reset via DEMCR.VC_CORERESET.
T3B60 000:187.422   Reset: Reset device via AIRCR.SYSRESETREQ.
T3B60 000:187.452   CPU is running
T3B60 000:187.472   CPU_WriteMem(4 bytes @ 0xE000ED0C)
T3B60 000:239.881   CPU_ReadMem(4 bytes @ 0xE000EDF0)
T3B60 000:240.334   CPU_ReadMem(4 bytes @ 0xE000EDF0)
T3B60 000:240.753   CPU is running
T3B60 000:240.797   CPU_WriteMem(4 bytes @ 0xE000EDF0)
T3B60 000:241.153   CPU is running
T3B60 000:241.179   CPU_WriteMem(4 bytes @ 0xE000EDFC)
T3B60 000:247.614   CPU_ReadMem(4 bytes @ 0xE000EDF0)
T3B60 000:250.124   CPU_WriteMem(4 bytes @ 0xE0002000)
T3B60 000:250.524   CPU_ReadMem(4 bytes @ 0xE000EDFC)
T3B60 000:250.855   CPU_ReadMem(4 bytes @ 0xE0001000)
T3B60 000:251.268 - 71.663ms
T3B60 000:251.297 JLINK_Halt()
T3B60 000:251.309 - 0.017ms returns 0x00
T3B60 000:251.324 JLINK_ReadMemU32(0xE000EDF0, 0x1 Items)
T3B60 000:251.341   CPU_ReadMem(4 bytes @ 0xE000EDF0)
T3B60 000:251.713   Data:  03 00 03 00
T3B60 000:251.730   Debug reg: DHCSR
T3B60 000:251.746 - 0.427ms returns 1 (0x1)
T3B60 000:251.764 JLINK_WriteU32_64(0xE000EDF0, 0xA05F0003)
T3B60 000:251.777   Debug reg: DHCSR
T3B60 000:251.985   CPU_WriteMem(4 bytes @ 0xE000EDF0)
T3B60 000:252.410 - 0.652ms returns 0 (0x00000000)
T3B60 000:252.428 JLINK_WriteU32_64(0xE000EDFC, 0x01000000)
T3B60 000:252.439   Debug reg: DEMCR
T3B60 000:252.457   CPU_WriteMem(4 bytes @ 0xE000EDFC)
T3B60 000:252.801 - 0.380ms returns 0 (0x00000000)
T3B60 000:265.205 JLINK_GetHWStatus(...)
T3B60 000:265.395 - 0.205ms returns 0
T3B60 000:273.499 JLINK_GetNumBPUnits(Type = 0xFFFFFF00)
T3B60 000:273.525 - 0.031ms returns 0x06
T3B60 000:273.537 JLINK_GetNumBPUnits(Type = 0xF0)
T3B60 000:273.548 - 0.016ms returns 0x2000
T3B60 000:273.560 JLINK_GetNumWPUnits()
T3B60 000:273.571 - 0.016ms returns 4
T3B60 000:283.574 JLINK_GetSpeed()
T3B60 000:283.597 - 0.030ms returns 4000
T3B60 000:289.320 JLINK_ReadMemU32(0xE000E004, 0x1 Items)
T3B60 000:289.356   CPU_ReadMem(4 bytes @ 0xE000E004)
T3B60 000:289.758   Data:  01 00 00 00
T3B60 000:289.784 - 0.469ms returns 1 (0x1)
T3B60 000:289.798 JLINK_ReadMemU32(0xE000E004, 0x1 Items)
T3B60 000:289.814   CPU_ReadMem(4 bytes @ 0xE000E004)
T3B60 000:290.157   Data:  01 00 00 00
T3B60 000:290.176 - 0.383ms returns 1 (0x1)
T3B60 000:290.189 JLINK_WriteMemEx(0xE0001000, 0x0000001C Bytes, Flags = 0x02000004)
T3B60 000:290.201   Data:  01 00 00 00 00 00 00 00 00 00 00 00 00 00 00 00 ...
T3B60 000:290.223   CPU_WriteMem(28 bytes @ 0xE0001000)
T3B60 000:290.814 - 0.635ms returns 0x1C
T3B60 000:290.836 JLINK_Halt()
T3B60 000:290.847 - 0.016ms returns 0x00
T3B60 000:290.859 JLINK_IsHalted()
T3B60 000:290.871 - 0.017ms returns TRUE
T3B60 000:297.778 JLINK_WriteMem(0x20000000, 0x164 Bytes, ...)
T3B60 000:297.795   Data:  00 BE 0A E0 0D 78 2D 06 68 40 08 24 40 00 00 D3 ...
T3B60 000:298.015   CPU_WriteMem(356 bytes @ 0x20000000)
T3B60 000:300.614 - 2.847ms returns 0x164
T3B60 000:300.650 JLINK_HasError()
T3B60 000:300.664 JLINK_WriteReg(R0, 0x08000000)
T3B60 000:300.680 - 0.022ms returns 0
T3B60 000:300.692 JLINK_WriteReg(R1, 0x007A1200)
T3B60 000:300.704 - 0.017ms returns 0
T3B60 000:300.716 JLINK_WriteReg(R2, 0x00000001)
T3B60 000:300.727 - 0.016ms returns 0
T3B60 000:300.739 JLINK_WriteReg(R3, 0x00000000)
T3B60 000:300.750 - 0.016ms returns 0
T3B60 000:300.762 JLINK_WriteReg(R4, 0x00000000)
T3B60 000:300.773 - 0.016ms returns 0
T3B60 000:300.785 JLINK_WriteReg(R5, 0x00000000)
T3B60 000:300.796 - 0.016ms returns 0
T3B60 000:300.807 JLINK_WriteReg(R6, 0x00000000)
T3B60 000:300.818 - 0.016ms returns 0
T3B60 000:300.830 JLINK_WriteReg(R7, 0x00000000)
T3B60 000:300.841 - 0.016ms returns 0
T3B60 000:300.853 JLINK_WriteReg(R8, 0x00000000)
T3B60 000:300.871 - 0.023ms returns 0
T3B60 000:300.883 JLINK_WriteReg(R9, 0x20000160)
T3B60 000:300.894 - 0.016ms returns 0
T3B60 000:300.906 JLINK_WriteReg(R10, 0x00000000)
T3B60 000:300.917 - 0.016ms returns 0
T3B60 000:300.929 JLINK_WriteReg(R11, 0x00000000)
T3B60 000:300.940 - 0.016ms returns 0
T3B60 000:300.951 JLINK_WriteReg(R12, 0x00000000)
T3B60 000:300.962 - 0.016ms returns 0
T3B60 000:300.974 JLINK_WriteReg(R13 (SP), 0x20001000)
T3B60 000:300.986 - 0.017ms returns 0
T3B60 000:300.998 JLINK_WriteReg(R14, 0x20000001)
T3B60 000:301.009 - 0.016ms returns 0
T3B60 000:301.021 JLINK_WriteReg(R15 (PC), 0x20000038)
T3B60 000:301.035 - 0.019ms returns 0
T3B60 000:301.046 JLINK_WriteReg(XPSR, 0x01000000)
T3B60 000:301.060 - 0.019ms returns 0
T3B60 000:301.072 JLINK_WriteReg(MSP, 0x20001000)
T3B60 000:301.083 - 0.016ms returns 0
T3B60 000:301.095 JLINK_WriteReg(PSP, 0x20001000)
T3B60 000:301.106 - 0.016ms returns 0
T3B60 000:301.118 JLINK_WriteReg(CFBP, 0x00000000)
T3B60 000:301.129 - 0.016ms returns 0
T3B60 000:301.141 JLINK_SetBPEx(Addr = 0x20000000, Type = 0xFFFFFFF2)
T3B60 000:301.159   CPU_ReadMem(2 bytes @ 0x20000000)
T3B60 000:301.528 - 0.394ms returns 0x00000001
T3B60 000:301.543 JLINK_Go()
T3B60 000:301.557   CPU_WriteMem(2 bytes @ 0x20000000)
T3B60 000:301.990   CPU_ReadMem(4 bytes @ 0xE0001000)
T3B60 000:302.376   CPU_WriteMem(4 bytes @ 0xE0002008)
T3B60 000:302.394   CPU_WriteMem(4 bytes @ 0xE000200C)
T3B60 000:302.410   CPU_WriteMem(4 bytes @ 0xE0002010)
T3B60 000:302.427   CPU_WriteMem(4 bytes @ 0xE0002014)
T3B60 000:302.443   CPU_WriteMem(4 bytes @ 0xE0002018)
T3B60 000:302.460   CPU_WriteMem(4 bytes @ 0xE000201C)
T3B60 000:304.402   CPU_WriteMem(4 bytes @ 0xE0001004)
T3B60 000:306.882 - 5.347ms
T3B60 000:306.903 JLINK_IsHalted()
T3B60 000:308.999   CPU_ReadMem(2 bytes @ 0x20000000)
T3B60 000:309.377 - 2.482ms returns TRUE
T3B60 000:309.395 JLINK_ReadReg(R15 (PC))
T3B60 000:309.408 - 0.018ms returns 0x20000000
T3B60 000:309.422 JLINK_ClrBPEx(BPHandle = 0x00000001)
T3B60 000:309.434 - 0.017ms returns 0x00
T3B60 000:309.447 JLINK_ReadReg(R0)
T3B60 000:309.459 - 0.017ms returns 0x00000000
T3B60 000:311.136 JLINK_HasError()
T3B60 000:311.159 JLINK_WriteReg(R0, 0x08000000)
T3B60 000:311.172 - 0.019ms returns 0
T3B60 000:311.184 JLINK_WriteReg(R1, 0x00000800)
T3B60 000:311.195 - 0.016ms returns 0
T3B60 000:311.207 JLINK_WriteReg(R2, 0x000000FF)
T3B60 000:311.218 - 0.016ms returns 0
T3B60 000:311.229 JLINK_WriteReg(R3, 0x00000000)
T3B60 000:311.240 - 0.016ms returns 0
T3B60 000:311.251 JLINK_WriteReg(R4, 0x00000000)
T3B60 000:311.262 - 0.016ms returns 0
T3B60 000:311.273 JLINK_WriteReg(R5, 0x00000000)
T3B60 000:311.284 - 0.016ms returns 0
T3B60 000:311.296 JLINK_WriteReg(R6, 0x00000000)
T3B60 000:311.306 - 0.016ms returns 0
T3B60 000:311.318 JLINK_WriteReg(R7, 0x00000000)
T3B60 000:311.329 - 0.016ms returns 0
T3B60 000:311.340 JLINK_WriteReg(R8, 0x00000000)
T3B60 000:311.351 - 0.016ms returns 0
T3B60 000:311.362 JLINK_WriteReg(R9, 0x20000160)
T3B60 000:311.373 - 0.016ms returns 0
T3B60 000:311.385 JLINK_WriteReg(R10, 0x00000000)
T3B60 000:311.395 - 0.016ms returns 0
T3B60 000:311.407 JLINK_WriteReg(R11, 0x00000000)
T3B60 000:311.418 - 0.016ms returns 0
T3B60 000:311.429 JLINK_WriteReg(R12, 0x00000000)
T3B60 000:311.440 - 0.016ms returns 0
T3B60 000:311.451 JLINK_WriteReg(R13 (SP), 0x20001000)
T3B60 000:311.462 - 0.016ms returns 0
T3B60 000:311.474 JLINK_WriteReg(R14, 0x20000001)
T3B60 000:311.484 - 0.016ms returns 0
T3B60 000:311.496 JLINK_WriteReg(R15 (PC), 0x20000020)
T3B60 000:311.507 - 0.016ms returns 0
T3B60 000:311.518 JLINK_WriteReg(XPSR, 0x01000000)
T3B60 000:311.529 - 0.016ms returns 0
T3B60 000:311.541 JLINK_WriteReg(MSP, 0x20001000)
T3B60 000:311.551 - 0.016ms returns 0
T3B60 000:311.563 JLINK_WriteReg(PSP, 0x20001000)
T3B60 000:311.574 - 0.016ms returns 0
T3B60 000:311.585 JLINK_WriteReg(CFBP, 0x00000000)
T3B60 000:311.596 - 0.016ms returns 0
T3B60 000:311.608 JLINK_SetBPEx(Addr = 0x20000000, Type = 0xFFFFFFF2)
T3B60 000:311.619 - 0.017ms returns 0x00000002
T3B60 000:311.631 JLINK_Go()
T3B60 000:311.649   CPU_ReadMem(4 bytes @ 0xE0001000)
T3B60 000:314.150 - 2.534ms
T3B60 000:314.174 JLINK_IsHalted()
T3B60 000:316.300   CPU_ReadMem(2 bytes @ 0x20000000)
T3B60 000:316.750 - 2.582ms returns TRUE
T3B60 000:316.764 JLINK_ReadReg(R15 (PC))
T3B60 000:316.776 - 0.017ms returns 0x20000000
T3B60 000:316.788 JLINK_ClrBPEx(BPHandle = 0x00000002)
T3B60 000:316.799 - 0.016ms returns 0x00
T3B60 000:316.811 JLINK_ReadReg(R0)
T3B60 000:316.822 - 0.016ms returns 0x00000001
T3B60 000:316.833 JLINK_HasError()
T3B60 000:316.845 JLINK_WriteReg(R0, 0x08000000)
T3B60 000:316.857 - 0.017ms returns 0
T3B60 000:316.868 JLINK_WriteReg(R1, 0x00000800)
T3B60 000:316.921 - 0.058ms returns 0
T3B60 000:316.933 JLINK_WriteReg(R2, 0x000000FF)
T3B60 000:316.944 - 0.016ms returns 0
T3B60 000:316.956 JLINK_WriteReg(R3, 0x00000000)
T3B60 000:316.967 - 0.016ms returns 0
T3B60 000:316.978 JLINK_WriteReg(R4, 0x00000000)
T3B60 000:316.989 - 0.016ms returns 0
T3B60 000:317.000 JLINK_WriteReg(R5, 0x00000000)
T3B60 000:317.011 - 0.016ms returns 0
T3B60 000:317.023 JLINK_WriteReg(R6, 0x00000000)
T3B60 000:317.034 - 0.016ms returns 0
T3B60 000:317.045 JLINK_WriteReg(R7, 0x00000000)
T3B60 000:317.056 - 0.016ms returns 0
T3B60 000:317.067 JLINK_WriteReg(R8, 0x00000000)
T3B60 000:317.078 - 0.016ms returns 0
T3B60 000:317.090 JLINK_WriteReg(R9, 0x20000160)
T3B60 000:317.108 - 0.023ms returns 0
T3B60 000:317.122 JLINK_WriteReg(R10, 0x00000000)
T3B60 000:317.134 - 0.017ms returns 0
T3B60 000:317.145 JLINK_WriteReg(R11, 0x00000000)
T3B60 000:317.156 - 0.016ms returns 0
T3B60 000:317.167 JLINK_WriteReg(R12, 0x00000000)
T3B60 000:317.178 - 0.016ms returns 0
T3B60 000:317.190 JLINK_WriteReg(R13 (SP), 0x20001000)
T3B60 000:317.201 - 0.016ms returns 0
T3B60 000:317.213 JLINK_WriteReg(R14, 0x20000001)
T3B60 000:317.224 - 0.016ms returns 0
T3B60 000:317.235 JLINK_WriteReg(R15 (PC), 0x200000B6)
T3B60 000:317.246 - 0.016ms returns 0
T3B60 000:317.258 JLINK_WriteReg(XPSR, 0x01000000)
T3B60 000:317.269 - 0.016ms returns 0
T3B60 000:317.281 JLINK_WriteReg(MSP, 0x20001000)
T3B60 000:317.292 - 0.016ms returns 0
T3B60 000:317.304 JLINK_WriteReg(PSP, 0x20001000)
T3B60 000:317.315 - 0.016ms returns 0
T3B60 000:317.327 JLINK_WriteReg(CFBP, 0x00000000)
T3B60 000:317.338 - 0.016ms returns 0
T3B60 000:317.350 JLINK_SetBPEx(Addr = 0x20000000, Type = 0xFFFFFFF2)
T3B60 000:317.361 - 0.017ms returns 0x00000003
T3B60 000:317.373 JLINK_Go()
T3B60 000:317.389   CPU_ReadMem(4 bytes @ 0xE0001000)
T3B60 000:319.815 - 2.453ms
T3B60 000:319.835 JLINK_IsHalted()
T3B60 000:320.178 - 0.352ms returns FALSE
T3B60 000:320.195 JLINK_HasError()
T3B60 000:368.935 JLINK_IsHalted()
T3B60 000:371.108   CPU_ReadMem(2 bytes @ 0x20000000)
T3B60 000:371.499 - 2.570ms returns TRUE
T3B60 000:371.514 JLINK_ReadReg(R15 (PC))
T3B60 000:371.527 - 0.018ms returns 0x20000000
T3B60 000:371.538 JLINK_ClrBPEx(BPHandle = 0x00000003)
T3B60 000:371.550 - 0.016ms returns 0x00
T3B60 000:371.561 JLINK_ReadReg(R0)
T3B60 000:371.572 - 0.016ms returns 0x00000000
T3B60 000:371.885 JLINK_HasError()
T3B60 000:371.901 JLINK_WriteReg(R0, 0x08000800)
T3B60 000:371.914 - 0.017ms returns 0
T3B60 000:371.926 JLINK_WriteReg(R1, 0x00000800)
T3B60 000:371.937 - 0.016ms returns 0
T3B60 000:371.948 JLINK_WriteReg(R2, 0x000000FF)
T3B60 000:371.959 - 0.016ms returns 0
T3B60 000:371.970 JLINK_WriteReg(R3, 0x00000000)
T3B60 000:372.101 - 0.136ms returns 0
T3B60 000:372.114 JLINK_WriteReg(R4, 0x00000000)
T3B60 000:372.125 - 0.016ms returns 0
T3B60 000:372.136 JLINK_WriteReg(R5, 0x00000000)
T3B60 000:372.147 - 0.016ms returns 0
T3B60 000:372.159 JLINK_WriteReg(R6, 0x00000000)
T3B60 000:372.170 - 0.016ms returns 0
T3B60 000:372.181 JLINK_WriteReg(R7, 0x00000000)
T3B60 000:372.192 - 0.016ms returns 0
T3B60 000:372.204 JLINK_WriteReg(R8, 0x00000000)
T3B60 000:372.215 - 0.016ms returns 0
T3B60 000:372.226 JLINK_WriteReg(R9, 0x20000160)
T3B60 000:372.237 - 0.016ms returns 0
T3B60 000:372.249 JLINK_WriteReg(R10, 0x00000000)
T3B60 000:372.260 - 0.016ms returns 0
T3B60 000:372.271 JLINK_WriteReg(R11, 0x00000000)
T3B60 000:372.282 - 0.016ms returns 0
T3B60 000:372.293 JLINK_WriteReg(R12, 0x00000000)
T3B60 000:372.304 - 0.016ms returns 0
T3B60 000:372.316 JLINK_WriteReg(R13 (SP), 0x20001000)
T3B60 000:372.327 - 0.017ms returns 0
T3B60 000:372.339 JLINK_WriteReg(R14, 0x20000001)
T3B60 000:372.350 - 0.016ms returns 0
T3B60 000:372.361 JLINK_WriteReg(R15 (PC), 0x20000020)
T3B60 000:372.372 - 0.016ms returns 0
T3B60 000:372.384 JLINK_WriteReg(XPSR, 0x01000000)
T3B60 000:372.394 - 0.016ms returns 0
T3B60 000:372.406 JLINK_WriteReg(MSP, 0x20001000)
T3B60 000:372.417 - 0.056ms returns 0
T3B60 000:372.470 JLINK_WriteReg(PSP, 0x20001000)
T3B60 000:372.482 - 0.016ms returns 0
T3B60 000:372.493 JLINK_WriteReg(CFBP, 0x00000000)
T3B60 000:372.504 - 0.016ms returns 0
T3B60 000:372.516 JLINK_SetBPEx(Addr = 0x20000000, Type = 0xFFFFFFF2)
T3B60 000:372.528 - 0.017ms returns 0x00000004
T3B60 000:372.540 JLINK_Go()
T3B60 000:372.558   CPU_ReadMem(4 bytes @ 0xE0001000)
T3B60 000:375.151 - 2.628ms
T3B60 000:375.178 JLINK_IsHalted()
T3B60 000:377.391   CPU_ReadMem(2 bytes @ 0x20000000)
T3B60 000:377.854 - 2.683ms returns TRUE
T3B60 000:377.870 JLINK_ReadReg(R15 (PC))
T3B60 000:377.883 - 0.018ms returns 0x20000000
T3B60 000:377.895 JLINK_ClrBPEx(BPHandle = 0x00000004)
T3B60 000:377.911 - 0.021ms returns 0x00
T3B60 000:377.924 JLINK_ReadReg(R0)
T3B60 000:377.935 - 0.017ms returns 0x00000001
T3B60 000:377.948 JLINK_HasError()
T3B60 000:377.961 JLINK_WriteReg(R0, 0x08000800)
T3B60 000:377.974 - 0.023ms returns 0
T3B60 000:377.992 JLINK_WriteReg(R1, 0x00000800)
T3B60 000:378.004 - 0.018ms returns 0
T3B60 000:378.017 JLINK_WriteReg(R2, 0x000000FF)
T3B60 000:378.029 - 0.017ms returns 0
T3B60 000:378.040 JLINK_WriteReg(R3, 0x00000000)
T3B60 000:378.052 - 0.017ms returns 0
T3B60 000:378.064 JLINK_WriteReg(R4, 0x00000000)
T3B60 000:378.076 - 0.017ms returns 0
T3B60 000:378.088 JLINK_WriteReg(R5, 0x00000000)
T3B60 000:378.099 - 0.017ms returns 0
T3B60 000:378.112 JLINK_WriteReg(R6, 0x00000000)
T3B60 000:378.124 - 0.018ms returns 0
T3B60 000:378.136 JLINK_WriteReg(R7, 0x00000000)
T3B60 000:378.147 - 0.017ms returns 0
T3B60 000:378.160 JLINK_WriteReg(R8, 0x00000000)
T3B60 000:378.171 - 0.018ms returns 0
T3B60 000:378.184 JLINK_WriteReg(R9, 0x20000160)
T3B60 000:378.196 - 0.017ms returns 0
T3B60 000:378.208 JLINK_WriteReg(R10, 0x00000000)
T3B60 000:378.219 - 0.016ms returns 0
T3B60 000:378.232 JLINK_WriteReg(R11, 0x00000000)
T3B60 000:378.244 - 0.017ms returns 0
T3B60 000:378.256 JLINK_WriteReg(R12, 0x00000000)
T3B60 000:378.268 - 0.017ms returns 0
T3B60 000:378.280 JLINK_WriteReg(R13 (SP), 0x20001000)
T3B60 000:378.294 - 0.019ms returns 0
T3B60 000:378.306 JLINK_WriteReg(R14, 0x20000001)
T3B60 000:378.318 - 0.017ms returns 0
T3B60 000:378.330 JLINK_WriteReg(R15 (PC), 0x200000B6)
T3B60 000:378.341 - 0.017ms returns 0
T3B60 000:378.353 JLINK_WriteReg(XPSR, 0x01000000)
T3B60 000:378.365 - 0.017ms returns 0
T3B60 000:378.377 JLINK_WriteReg(MSP, 0x20001000)
T3B60 000:378.388 - 0.017ms returns 0
T3B60 000:378.400 JLINK_WriteReg(PSP, 0x20001000)
T3B60 000:378.411 - 0.017ms returns 0
T3B60 000:378.424 JLINK_WriteReg(CFBP, 0x00000000)
T3B60 000:378.436 - 0.017ms returns 0
T3B60 000:378.448 JLINK_SetBPEx(Addr = 0x20000000, Type = 0xFFFFFFF2)
T3B60 000:378.462 - 0.019ms returns 0x00000005
T3B60 000:378.475 JLINK_Go()
T3B60 000:378.493   CPU_ReadMem(4 bytes @ 0xE0001000)
T3B60 000:380.879 - 2.412ms
T3B60 000:380.896 JLINK_IsHalted()
T3B60 000:381.173 - 0.284ms returns FALSE
T3B60 000:381.187 JLINK_HasError()
T3B60 000:385.608 JLINK_IsHalted()
T3B60 000:387.853   CPU_ReadMem(2 bytes @ 0x20000000)
T3B60 000:388.222 - 2.621ms returns TRUE
T3B60 000:388.242 JLINK_ReadReg(R15 (PC))
T3B60 000:388.255 - 0.018ms returns 0x20000000
T3B60 000:388.267 JLINK_ClrBPEx(BPHandle = 0x00000005)
T3B60 000:388.278 - 0.016ms returns 0x00
T3B60 000:388.292 JLINK_ReadReg(R0)
T3B60 000:388.304 - 0.016ms returns 0x00000000
T3B60 000:388.649 JLINK_HasError()
T3B60 000:388.666 JLINK_WriteReg(R0, 0x08001000)
T3B60 000:388.678 - 0.017ms returns 0
T3B60 000:388.690 JLINK_WriteReg(R1, 0x00000800)
T3B60 000:388.702 - 0.017ms returns 0
T3B60 000:388.713 JLINK_WriteReg(R2, 0x000000FF)
T3B60 000:388.724 - 0.016ms returns 0
T3B60 000:388.736 JLINK_WriteReg(R3, 0x00000000)
T3B60 000:388.747 - 0.016ms returns 0
T3B60 000:388.758 JLINK_WriteReg(R4, 0x00000000)
T3B60 000:388.770 - 0.016ms returns 0
T3B60 000:388.781 JLINK_WriteReg(R5, 0x00000000)
T3B60 000:388.792 - 0.016ms returns 0
T3B60 000:388.804 JLINK_WriteReg(R6, 0x00000000)
T3B60 000:388.815 - 0.016ms returns 0
T3B60 000:388.860 JLINK_WriteReg(R7, 0x00000000)
T3B60 000:388.872 - 0.018ms returns 0
T3B60 000:388.884 JLINK_WriteReg(R8, 0x00000000)
T3B60 000:388.895 - 0.017ms returns 0
T3B60 000:388.907 JLINK_WriteReg(R9, 0x20000160)
T3B60 000:388.918 - 0.016ms returns 0
T3B60 000:388.929 JLINK_WriteReg(R10, 0x00000000)
T3B60 000:388.940 - 0.016ms returns 0
T3B60 000:388.952 JLINK_WriteReg(R11, 0x00000000)
T3B60 000:388.963 - 0.016ms returns 0
T3B60 000:388.974 JLINK_WriteReg(R12, 0x00000000)
T3B60 000:388.985 - 0.016ms returns 0
T3B60 000:388.997 JLINK_WriteReg(R13 (SP), 0x20001000)
T3B60 000:389.009 - 0.017ms returns 0
T3B60 000:389.020 JLINK_WriteReg(R14, 0x20000001)
T3B60 000:389.050 - 0.035ms returns 0
T3B60 000:389.062 JLINK_WriteReg(R15 (PC), 0x20000020)
T3B60 000:389.074 - 0.016ms returns 0
T3B60 000:389.086 JLINK_WriteReg(XPSR, 0x01000000)
T3B60 000:389.100 - 0.019ms returns 0
T3B60 000:389.112 JLINK_WriteReg(MSP, 0x20001000)
T3B60 000:389.123 - 0.016ms returns 0
T3B60 000:389.135 JLINK_WriteReg(PSP, 0x20001000)
T3B60 000:389.146 - 0.016ms returns 0
T3B60 000:389.157 JLINK_WriteReg(CFBP, 0x00000000)
T3B60 000:389.168 - 0.016ms returns 0
T3B60 000:389.180 JLINK_SetBPEx(Addr = 0x20000000, Type = 0xFFFFFFF2)
T3B60 000:389.192 - 0.018ms returns 0x00000006
T3B60 000:389.205 JLINK_Go()
T3B60 000:389.223   CPU_ReadMem(4 bytes @ 0xE0001000)
T3B60 000:391.804 - 2.616ms
T3B60 000:391.830 JLINK_IsHalted()
T3B60 000:394.015   CPU_ReadMem(2 bytes @ 0x20000000)
T3B60 000:394.491 - 2.680ms returns TRUE
T3B60 000:394.524 JLINK_ReadReg(R15 (PC))
T3B60 000:394.544 - 0.029ms returns 0x20000000
T3B60 000:394.564 JLINK_ClrBPEx(BPHandle = 0x00000006)
T3B60 000:394.583 - 0.028ms returns 0x00
T3B60 000:394.603 JLINK_ReadReg(R0)
T3B60 000:394.621 - 0.027ms returns 0x00000001
T3B60 000:394.642 JLINK_HasError()
T3B60 000:394.662 JLINK_WriteReg(R0, 0x08001000)
T3B60 000:394.681 - 0.028ms returns 0
T3B60 000:394.701 JLINK_WriteReg(R1, 0x00000800)
T3B60 000:394.720 - 0.028ms returns 0
T3B60 000:394.739 JLINK_WriteReg(R2, 0x000000FF)
T3B60 000:394.758 - 0.027ms returns 0
T3B60 000:394.778 JLINK_WriteReg(R3, 0x00000000)
T3B60 000:394.797 - 0.028ms returns 0
T3B60 000:394.816 JLINK_WriteReg(R4, 0x00000000)
T3B60 000:394.827 - 0.016ms returns 0
T3B60 000:394.839 JLINK_WriteReg(R5, 0x00000000)
T3B60 000:394.850 - 0.016ms returns 0
T3B60 000:394.861 JLINK_WriteReg(R6, 0x00000000)
T3B60 000:394.872 - 0.017ms returns 0
T3B60 000:394.884 JLINK_WriteReg(R7, 0x00000000)
T3B60 000:394.895 - 0.016ms returns 0
T3B60 000:394.907 JLINK_WriteReg(R8, 0x00000000)
T3B60 000:394.919 - 0.017ms returns 0
T3B60 000:394.931 JLINK_WriteReg(R9, 0x20000160)
T3B60 000:394.942 - 0.017ms returns 0
T3B60 000:394.954 JLINK_WriteReg(R10, 0x00000000)
T3B60 000:394.965 - 0.017ms returns 0
T3B60 000:394.977 JLINK_WriteReg(R11, 0x00000000)
T3B60 000:394.989 - 0.017ms returns 0
T3B60 000:395.001 JLINK_WriteReg(R12, 0x00000000)
T3B60 000:395.012 - 0.016ms returns 0
T3B60 000:395.024 JLINK_WriteReg(R13 (SP), 0x20001000)
T3B60 000:395.061 - 0.042ms returns 0
T3B60 000:395.073 JLINK_WriteReg(R14, 0x20000001)
T3B60 000:395.085 - 0.017ms returns 0
T3B60 000:395.097 JLINK_WriteReg(R15 (PC), 0x200000B6)
T3B60 000:395.108 - 0.017ms returns 0
T3B60 000:395.121 JLINK_WriteReg(XPSR, 0x01000000)
T3B60 000:395.132 - 0.017ms returns 0
T3B60 000:395.144 JLINK_WriteReg(MSP, 0x20001000)
T3B60 000:395.155 - 0.017ms returns 0
T3B60 000:395.167 JLINK_WriteReg(PSP, 0x20001000)
T3B60 000:395.179 - 0.017ms returns 0
T3B60 000:395.191 JLINK_WriteReg(CFBP, 0x00000000)
T3B60 000:395.202 - 0.017ms returns 0
T3B60 000:395.214 JLINK_SetBPEx(Addr = 0x20000000, Type = 0xFFFFFFF2)
T3B60 000:395.226 - 0.017ms returns 0x00000007
T3B60 000:395.238 JLINK_Go()
T3B60 000:395.253   CPU_ReadMem(4 bytes @ 0xE0001000)
T3B60 000:397.859 - 2.627ms
T3B60 000:397.872 JLINK_IsHalted()
T3B60 000:398.202 - 0.336ms returns FALSE
T3B60 000:398.216 JLINK_HasError()
T3B60 000:400.555 JLINK_IsHalted()
T3B60 000:402.727   CPU_ReadMem(2 bytes @ 0x20000000)
T3B60 000:403.060 - 2.515ms returns TRUE
T3B60 000:403.081 JLINK_ReadReg(R15 (PC))
T3B60 000:403.097 - 0.023ms returns 0x20000000
T3B60 000:403.112 JLINK_ClrBPEx(BPHandle = 0x00000007)
T3B60 000:403.127 - 0.021ms returns 0x00
T3B60 000:403.141 JLINK_ReadReg(R0)
T3B60 000:403.156 - 0.021ms returns 0x00000000
T3B60 000:403.501 JLINK_HasError()
T3B60 000:403.516 JLINK_WriteReg(R0, 0x08001800)
T3B60 000:403.528 - 0.017ms returns 0
T3B60 000:403.540 JLINK_WriteReg(R1, 0x00000800)
T3B60 000:403.564 - 0.029ms returns 0
T3B60 000:403.576 JLINK_WriteReg(R2, 0x000000FF)
T3B60 000:403.588 - 0.017ms returns 0
T3B60 000:403.599 JLINK_WriteReg(R3, 0x00000000)
T3B60 000:403.610 - 0.017ms returns 0
T3B60 000:403.622 JLINK_WriteReg(R4, 0x00000000)
T3B60 000:403.634 - 0.017ms returns 0
T3B60 000:403.646 JLINK_WriteReg(R5, 0x00000000)
T3B60 000:403.657 - 0.016ms returns 0
T3B60 000:403.668 JLINK_WriteReg(R6, 0x00000000)
T3B60 000:403.679 - 0.016ms returns 0
T3B60 000:403.691 JLINK_WriteReg(R7, 0x00000000)
T3B60 000:403.702 - 0.016ms returns 0
T3B60 000:403.713 JLINK_WriteReg(R8, 0x00000000)
T3B60 000:403.724 - 0.016ms returns 0
T3B60 000:403.735 JLINK_WriteReg(R9, 0x20000160)
T3B60 000:403.746 - 0.016ms returns 0
T3B60 000:403.758 JLINK_WriteReg(R10, 0x00000000)
T3B60 000:403.769 - 0.016ms returns 0
T3B60 000:403.780 JLINK_WriteReg(R11, 0x00000000)
T3B60 000:403.791 - 0.016ms returns 0
T3B60 000:403.807 JLINK_WriteReg(R12, 0x00000000)
T3B60 000:403.818 - 0.016ms returns 0
T3B60 000:403.830 JLINK_WriteReg(R13 (SP), 0x20001000)
T3B60 000:403.841 - 0.017ms returns 0
T3B60 000:403.853 JLINK_WriteReg(R14, 0x20000001)
T3B60 000:403.864 - 0.016ms returns 0
T3B60 000:403.876 JLINK_WriteReg(R15 (PC), 0x20000020)
T3B60 000:403.887 - 0.016ms returns 0
T3B60 000:403.898 JLINK_WriteReg(XPSR, 0x01000000)
T3B60 000:403.909 - 0.016ms returns 0
T3B60 000:403.921 JLINK_WriteReg(MSP, 0x20001000)
T3B60 000:403.932 - 0.017ms returns 0
T3B60 000:403.944 JLINK_WriteReg(PSP, 0x20001000)
T3B60 000:403.955 - 0.016ms returns 0
T3B60 000:403.967 JLINK_WriteReg(CFBP, 0x00000000)
T3B60 000:403.979 - 0.018ms returns 0
T3B60 000:403.991 JLINK_SetBPEx(Addr = 0x20000000, Type = 0xFFFFFFF2)
T3B60 000:404.002 - 0.017ms returns 0x00000008
T3B60 000:404.014 JLINK_Go()
T3B60 000:404.031   CPU_ReadMem(4 bytes @ 0xE0001000)
T3B60 000:406.606 - 2.598ms
T3B60 000:406.619 JLINK_IsHalted()
T3B60 000:408.856   CPU_ReadMem(2 bytes @ 0x20000000)
T3B60 000:409.212 - 2.601ms returns TRUE
T3B60 000:409.231 JLINK_ReadReg(R15 (PC))
T3B60 000:409.249 - 0.026ms returns 0x20000000
T3B60 000:409.267 JLINK_ClrBPEx(BPHandle = 0x00000008)
T3B60 000:409.284 - 0.025ms returns 0x00
T3B60 000:409.303 JLINK_ReadReg(R0)
T3B60 000:409.320 - 0.026ms returns 0x00000001
T3B60 000:409.340 JLINK_HasError()
T3B60 000:409.359 JLINK_WriteReg(R0, 0x08001800)
T3B60 000:409.377 - 0.026ms returns 0
T3B60 000:409.395 JLINK_WriteReg(R1, 0x00000800)
T3B60 000:409.418 - 0.031ms returns 0
T3B60 000:409.436 JLINK_WriteReg(R2, 0x000000FF)
T3B60 000:409.454 - 0.026ms returns 0
T3B60 000:409.472 JLINK_WriteReg(R3, 0x00000000)
T3B60 000:409.490 - 0.026ms returns 0
T3B60 000:409.510 JLINK_WriteReg(R4, 0x00000000)
T3B60 000:409.527 - 0.026ms returns 0
T3B60 000:409.546 JLINK_WriteReg(R5, 0x00000000)
T3B60 000:409.563 - 0.026ms returns 0
T3B60 000:409.582 JLINK_WriteReg(R6, 0x00000000)
T3B60 000:409.599 - 0.026ms returns 0
T3B60 000:409.618 JLINK_WriteReg(R7, 0x00000000)
T3B60 000:409.635 - 0.026ms returns 0
T3B60 000:409.654 JLINK_WriteReg(R8, 0x00000000)
T3B60 000:409.671 - 0.027ms returns 0
T3B60 000:409.691 JLINK_WriteReg(R9, 0x20000160)
T3B60 000:409.709 - 0.026ms returns 0
T3B60 000:409.727 JLINK_WriteReg(R10, 0x00000000)
T3B60 000:409.744 - 0.026ms returns 0
T3B60 000:409.763 JLINK_WriteReg(R11, 0x00000000)
T3B60 000:409.780 - 0.026ms returns 0
T3B60 000:409.799 JLINK_WriteReg(R12, 0x00000000)
T3B60 000:409.816 - 0.026ms returns 0
T3B60 000:409.834 JLINK_WriteReg(R13 (SP), 0x20001000)
T3B60 000:409.852 - 0.026ms returns 0
T3B60 000:409.870 JLINK_WriteReg(R14, 0x20000001)
T3B60 000:409.892 - 0.030ms returns 0
T3B60 000:409.910 JLINK_WriteReg(R15 (PC), 0x200000B6)
T3B60 000:409.928 - 0.026ms returns 0
T3B60 000:409.946 JLINK_WriteReg(XPSR, 0x01000000)
T3B60 000:409.964 - 0.026ms returns 0
T3B60 000:409.982 JLINK_WriteReg(MSP, 0x20001000)
T3B60 000:409.999 - 0.026ms returns 0
T3B60 000:410.018 JLINK_WriteReg(PSP, 0x20001000)
T3B60 000:410.035 - 0.026ms returns 0
T3B60 000:410.065 JLINK_WriteReg(CFBP, 0x00000000)
T3B60 000:410.083 - 0.027ms returns 0
T3B60 000:410.102 JLINK_SetBPEx(Addr = 0x20000000, Type = 0xFFFFFFF2)
T3B60 000:410.120 - 0.027ms returns 0x00000009
T3B60 000:410.139 JLINK_Go()
T3B60 000:410.161   CPU_ReadMem(4 bytes @ 0xE0001000)
T3B60 000:412.792 - 2.668ms
T3B60 000:412.815 JLINK_IsHalted()
T3B60 000:413.156 - 0.347ms returns FALSE
T3B60 000:413.172 JLINK_HasError()
T3B60 000:415.101 JLINK_IsHalted()
T3B60 000:415.471 - 0.383ms returns FALSE
T3B60 000:415.495 JLINK_HasError()
T3B60 000:417.058 JLINK_IsHalted()
T3B60 000:419.303   CPU_ReadMem(2 bytes @ 0x20000000)
T3B60 000:419.769 - 2.722ms returns TRUE
T3B60 000:419.794 JLINK_ReadReg(R15 (PC))
T3B60 000:419.818 - 0.034ms returns 0x20000000
T3B60 000:419.841 JLINK_ClrBPEx(BPHandle = 0x00000009)
T3B60 000:419.863 - 0.032ms returns 0x00
T3B60 000:419.885 JLINK_ReadReg(R0)
T3B60 000:419.907 - 0.032ms returns 0x00000000
T3B60 000:420.576 JLINK_HasError()
T3B60 000:420.608 JLINK_WriteReg(R0, 0x08002000)
T3B60 000:420.634 - 0.036ms returns 0
T3B60 000:420.657 JLINK_WriteReg(R1, 0x00000800)
T3B60 000:420.680 - 0.033ms returns 0
T3B60 000:420.703 JLINK_WriteReg(R2, 0x000000FF)
T3B60 000:420.726 - 0.033ms returns 0
T3B60 000:420.749 JLINK_WriteReg(R3, 0x00000000)
T3B60 000:420.772 - 0.033ms returns 0
T3B60 000:420.795 JLINK_WriteReg(R4, 0x00000000)
T3B60 000:420.817 - 0.033ms returns 0
T3B60 000:420.841 JLINK_WriteReg(R5, 0x00000000)
T3B60 000:420.863 - 0.033ms returns 0
T3B60 000:420.886 JLINK_WriteReg(R6, 0x00000000)
T3B60 000:420.909 - 0.033ms returns 0
T3B60 000:420.932 JLINK_WriteReg(R7, 0x00000000)
T3B60 000:420.954 - 0.033ms returns 0
T3B60 000:420.978 JLINK_WriteReg(R8, 0x00000000)
T3B60 000:421.000 - 0.033ms returns 0
T3B60 000:421.023 JLINK_WriteReg(R9, 0x20000160)
T3B60 000:421.046 - 0.033ms returns 0
T3B60 000:421.069 JLINK_WriteReg(R10, 0x00000000)
T3B60 000:421.092 - 0.033ms returns 0
T3B60 000:421.115 JLINK_WriteReg(R11, 0x00000000)
T3B60 000:421.140 - 0.035ms returns 0
T3B60 000:421.162 JLINK_WriteReg(R12, 0x00000000)
T3B60 000:421.184 - 0.032ms returns 0
T3B60 000:421.206 JLINK_WriteReg(R13 (SP), 0x20001000)
T3B60 000:421.228 - 0.032ms returns 0
T3B60 000:421.250 JLINK_WriteReg(R14, 0x20000001)
T3B60 000:421.272 - 0.032ms returns 0
T3B60 000:421.306 JLINK_WriteReg(R15 (PC), 0x20000020)
T3B60 000:421.329 - 0.033ms returns 0
T3B60 000:421.351 JLINK_WriteReg(XPSR, 0x01000000)
T3B60 000:421.373 - 0.032ms returns 0
T3B60 000:421.395 JLINK_WriteReg(MSP, 0x20001000)
T3B60 000:421.417 - 0.031ms returns 0
T3B60 000:421.439 JLINK_WriteReg(PSP, 0x20001000)
T3B60 000:421.460 - 0.031ms returns 0
T3B60 000:421.482 JLINK_WriteReg(CFBP, 0x00000000)
T3B60 000:421.504 - 0.031ms returns 0
T3B60 000:421.526 JLINK_SetBPEx(Addr = 0x20000000, Type = 0xFFFFFFF2)
T3B60 000:421.549 - 0.033ms returns 0x0000000A
T3B60 000:421.572 JLINK_Go()
T3B60 000:421.603   CPU_ReadMem(4 bytes @ 0xE0001000)
T3B60 000:424.332 - 2.773ms
T3B60 000:424.359 JLINK_IsHalted()
T3B60 000:426.641   CPU_ReadMem(2 bytes @ 0x20000000)
T3B60 000:427.060 - 2.707ms returns TRUE
T3B60 000:427.072 JLINK_ReadReg(R15 (PC))
T3B60 000:427.084 - 0.017ms returns 0x20000000
T3B60 000:427.096 JLINK_ClrBPEx(BPHandle = 0x0000000A)
T3B60 000:427.107 - 0.016ms returns 0x00
T3B60 000:427.119 JLINK_ReadReg(R0)
T3B60 000:427.130 - 0.016ms returns 0x00000001
T3B60 000:427.143 JLINK_HasError()
T3B60 000:427.154 JLINK_WriteReg(R0, 0x08002000)
T3B60 000:427.170 - 0.021ms returns 0
T3B60 000:427.181 JLINK_WriteReg(R1, 0x00000800)
T3B60 000:427.192 - 0.016ms returns 0
T3B60 000:427.206 JLINK_WriteReg(R2, 0x000000FF)
T3B60 000:427.218 - 0.017ms returns 0
T3B60 000:427.229 JLINK_WriteReg(R3, 0x00000000)
T3B60 000:427.240 - 0.016ms returns 0
T3B60 000:427.252 JLINK_WriteReg(R4, 0x00000000)
T3B60 000:427.263 - 0.016ms returns 0
T3B60 000:427.274 JLINK_WriteReg(R5, 0x00000000)
T3B60 000:427.285 - 0.022ms returns 0
T3B60 000:427.303 JLINK_WriteReg(R6, 0x00000000)
T3B60 000:427.314 - 0.016ms returns 0
T3B60 000:427.325 JLINK_WriteReg(R7, 0x00000000)
T3B60 000:427.336 - 0.016ms returns 0
T3B60 000:427.348 JLINK_WriteReg(R8, 0x00000000)
T3B60 000:427.359 - 0.016ms returns 0
T3B60 000:427.370 JLINK_WriteReg(R9, 0x20000160)
T3B60 000:427.381 - 0.016ms returns 0
T3B60 000:427.392 JLINK_WriteReg(R10, 0x00000000)
T3B60 000:427.403 - 0.016ms returns 0
T3B60 000:427.414 JLINK_WriteReg(R11, 0x00000000)
T3B60 000:427.425 - 0.016ms returns 0
T3B60 000:427.437 JLINK_WriteReg(R12, 0x00000000)
T3B60 000:427.447 - 0.016ms returns 0
T3B60 000:427.459 JLINK_WriteReg(R13 (SP), 0x20001000)
T3B60 000:427.470 - 0.016ms returns 0
T3B60 000:427.481 JLINK_WriteReg(R14, 0x20000001)
T3B60 000:427.492 - 0.016ms returns 0
T3B60 000:427.503 JLINK_WriteReg(R15 (PC), 0x200000B6)
T3B60 000:427.514 - 0.016ms returns 0
T3B60 000:427.526 JLINK_WriteReg(XPSR, 0x01000000)
T3B60 000:427.537 - 0.016ms returns 0
T3B60 000:427.548 JLINK_WriteReg(MSP, 0x20001000)
T3B60 000:427.559 - 0.016ms returns 0
T3B60 000:427.570 JLINK_WriteReg(PSP, 0x20001000)
T3B60 000:427.581 - 0.016ms returns 0
T3B60 000:427.592 JLINK_WriteReg(CFBP, 0x00000000)
T3B60 000:427.603 - 0.016ms returns 0
T3B60 000:427.615 JLINK_SetBPEx(Addr = 0x20000000, Type = 0xFFFFFFF2)
T3B60 000:427.626 - 0.016ms returns 0x0000000B
T3B60 000:427.638 JLINK_Go()
T3B60 000:427.652   CPU_ReadMem(4 bytes @ 0xE0001000)
T3B60 000:430.242 - 2.623ms
T3B60 000:430.272 JLINK_IsHalted()
T3B60 000:430.748 - 0.492ms returns FALSE
T3B60 000:430.788 JLINK_HasError()
T3B60 000:434.847 JLINK_IsHalted()
T3B60 000:437.168   CPU_ReadMem(2 bytes @ 0x20000000)
T3B60 000:437.530 - 2.691ms returns TRUE
T3B60 000:437.548 JLINK_ReadReg(R15 (PC))
T3B60 000:437.565 - 0.024ms returns 0x20000000
T3B60 000:437.581 JLINK_ClrBPEx(BPHandle = 0x0000000B)
T3B60 000:437.597 - 0.023ms returns 0x00
T3B60 000:437.612 JLINK_ReadReg(R0)
T3B60 000:437.627 - 0.021ms returns 0x00000000
T3B60 000:437.936 JLINK_HasError()
T3B60 000:437.956 JLINK_WriteReg(R0, 0x00000001)
T3B60 000:437.973 - 0.023ms returns 0
T3B60 000:437.988 JLINK_WriteReg(R1, 0x00000800)
T3B60 000:438.003 - 0.021ms returns 0
T3B60 000:438.018 JLINK_WriteReg(R2, 0x000000FF)
T3B60 000:438.032 - 0.021ms returns 0
T3B60 000:438.047 JLINK_WriteReg(R3, 0x00000000)
T3B60 000:438.062 - 0.021ms returns 0
T3B60 000:438.077 JLINK_WriteReg(R4, 0x00000000)
T3B60 000:438.091 - 0.021ms returns 0
T3B60 000:438.116 JLINK_WriteReg(R5, 0x00000000)
T3B60 000:438.131 - 0.022ms returns 0
T3B60 000:438.147 JLINK_WriteReg(R6, 0x00000000)
T3B60 000:438.162 - 0.021ms returns 0
T3B60 000:438.177 JLINK_WriteReg(R7, 0x00000000)
T3B60 000:438.191 - 0.021ms returns 0
T3B60 000:438.206 JLINK_WriteReg(R8, 0x00000000)
T3B60 000:438.222 - 0.022ms returns 0
T3B60 000:438.236 JLINK_WriteReg(R9, 0x20000160)
T3B60 000:438.250 - 0.020ms returns 0
T3B60 000:438.265 JLINK_WriteReg(R10, 0x00000000)
T3B60 000:438.279 - 0.021ms returns 0
T3B60 000:438.293 JLINK_WriteReg(R11, 0x00000000)
T3B60 000:438.307 - 0.020ms returns 0
T3B60 000:438.322 JLINK_WriteReg(R12, 0x00000000)
T3B60 000:438.336 - 0.021ms returns 0
T3B60 000:438.351 JLINK_WriteReg(R13 (SP), 0x20001000)
T3B60 000:438.365 - 0.021ms returns 0
T3B60 000:438.380 JLINK_WriteReg(R14, 0x20000001)
T3B60 000:438.394 - 0.021ms returns 0
T3B60 000:438.408 JLINK_WriteReg(R15 (PC), 0x2000006A)
T3B60 000:438.423 - 0.021ms returns 0
T3B60 000:438.437 JLINK_WriteReg(XPSR, 0x01000000)
T3B60 000:438.451 - 0.021ms returns 0
T3B60 000:438.466 JLINK_WriteReg(MSP, 0x20001000)
T3B60 000:438.480 - 0.020ms returns 0
T3B60 000:438.495 JLINK_WriteReg(PSP, 0x20001000)
T3B60 000:438.509 - 0.022ms returns 0
T3B60 000:438.527 JLINK_WriteReg(CFBP, 0x00000000)
T3B60 000:438.541 - 0.020ms returns 0
T3B60 000:438.560 JLINK_SetBPEx(Addr = 0x20000000, Type = 0xFFFFFFF2)
T3B60 000:438.575 - 0.021ms returns 0x0000000C
T3B60 000:438.590 JLINK_Go()
T3B60 000:438.612   CPU_ReadMem(4 bytes @ 0xE0001000)
T3B60 000:441.165 - 2.583ms
T3B60 000:441.184 JLINK_IsHalted()
T3B60 000:443.326   CPU_ReadMem(2 bytes @ 0x20000000)
T3B60 000:443.718 - 2.547ms returns TRUE
T3B60 000:443.769 JLINK_ReadReg(R15 (PC))
T3B60 000:443.795 - 0.038ms returns 0x20000000
T3B60 000:443.824 JLINK_ClrBPEx(BPHandle = 0x0000000C)
T3B60 000:443.849 - 0.041ms returns 0x00
T3B60 000:443.883 JLINK_ReadReg(R0)
T3B60 000:443.907 - 0.036ms returns 0x00000000
T3B60 000:505.632 JLINK_WriteMem(0x20000000, 0x164 Bytes, ...)
T3B60 000:505.662   Data:  00 BE 0A E0 0D 78 2D 06 68 40 08 24 40 00 00 D3 ...
T3B60 000:505.711   CPU_WriteMem(356 bytes @ 0x20000000)
T3B60 000:508.391 - 2.795ms returns 0x164
T3B60 000:508.486 JLINK_HasError()
T3B60 000:508.521 JLINK_WriteReg(R0, 0x08000000)
T3B60 000:508.557 - 0.050ms returns 0
T3B60 000:508.588 JLINK_WriteReg(R1, 0x007A1200)
T3B60 000:508.618 - 0.044ms returns 0
T3B60 000:508.650 JLINK_WriteReg(R2, 0x00000002)
T3B60 000:508.681 - 0.045ms returns 0
T3B60 000:508.711 JLINK_WriteReg(R3, 0x00000000)
T3B60 000:508.741 - 0.044ms returns 0
T3B60 000:508.772 JLINK_WriteReg(R4, 0x00000000)
T3B60 000:508.802 - 0.045ms returns 0
T3B60 000:508.834 JLINK_WriteReg(R5, 0x00000000)
T3B60 000:508.864 - 0.045ms returns 0
T3B60 000:508.895 JLINK_WriteReg(R6, 0x00000000)
T3B60 000:508.925 - 0.044ms returns 0
T3B60 000:508.956 JLINK_WriteReg(R7, 0x00000000)
T3B60 000:508.986 - 0.044ms returns 0
T3B60 000:509.016 JLINK_WriteReg(R8, 0x00000000)
T3B60 000:509.046 - 0.043ms returns 0
T3B60 000:509.069 JLINK_WriteReg(R9, 0x20000160)
T3B60 000:509.085 - 0.023ms returns 0
T3B60 000:509.101 JLINK_WriteReg(R10, 0x00000000)
T3B60 000:509.116 - 0.023ms returns 0
T3B60 000:509.132 JLINK_WriteReg(R11, 0x00000000)
T3B60 000:509.148 - 0.022ms returns 0
T3B60 000:509.164 JLINK_WriteReg(R12, 0x00000000)
T3B60 000:509.179 - 0.022ms returns 0
T3B60 000:509.195 JLINK_WriteReg(R13 (SP), 0x20001000)
T3B60 000:509.211 - 0.023ms returns 0
T3B60 000:509.227 JLINK_WriteReg(R14, 0x20000001)
T3B60 000:509.242 - 0.023ms returns 0
T3B60 000:509.259 JLINK_WriteReg(R15 (PC), 0x20000038)
T3B60 000:509.275 - 0.023ms returns 0
T3B60 000:509.291 JLINK_WriteReg(XPSR, 0x01000000)
T3B60 000:509.307 - 0.023ms returns 0
T3B60 000:509.323 JLINK_WriteReg(MSP, 0x20001000)
T3B60 000:509.339 - 0.023ms returns 0
T3B60 000:509.355 JLINK_WriteReg(PSP, 0x20001000)
T3B60 000:509.371 - 0.023ms returns 0
T3B60 000:509.387 JLINK_WriteReg(CFBP, 0x00000000)
T3B60 000:509.403 - 0.023ms returns 0
T3B60 000:509.419 JLINK_SetBPEx(Addr = 0x20000000, Type = 0xFFFFFFF2)
T3B60 000:509.440   CPU_ReadMem(2 bytes @ 0x20000000)
T3B60 000:509.834 - 0.442ms returns 0x0000000D
T3B60 000:509.874 JLINK_Go()
T3B60 000:509.895   CPU_WriteMem(2 bytes @ 0x20000000)
T3B60 000:510.419   CPU_ReadMem(4 bytes @ 0xE0001000)
T3B60 000:512.951 - 3.092ms
T3B60 000:512.979 JLINK_IsHalted()
T3B60 000:515.266   CPU_ReadMem(2 bytes @ 0x20000000)
T3B60 000:515.731 - 2.763ms returns TRUE
T3B60 000:515.756 JLINK_ReadReg(R15 (PC))
T3B60 000:515.777 - 0.030ms returns 0x20000000
T3B60 000:515.797 JLINK_ClrBPEx(BPHandle = 0x0000000D)
T3B60 000:515.816 - 0.027ms returns 0x00
T3B60 000:515.835 JLINK_ReadReg(R0)
T3B60 000:515.853 - 0.027ms returns 0x00000000
T3B60 000:516.223 JLINK_WriteMem(0x20000164, 0x29C Bytes, ...)
T3B60 000:516.248   Data:  48 07 00 20 CD 01 00 08 49 04 00 08 B9 03 00 08 ...
T3B60 000:516.288   CPU_WriteMem(668 bytes @ 0x20000164)
T3B60 000:520.662 - 4.458ms returns 0x29C
T3B60 000:520.704 JLINK_WriteMem(0x20000400, 0x164 Bytes, ...)
T3B60 000:520.729   Data:  70 47 2D E9 F0 41 02 46 00 25 00 26 00 20 00 23 ...
T3B60 000:520.775   CPU_WriteMem(356 bytes @ 0x20000400)
T3B60 000:523.349 - 2.664ms returns 0x164
T3B60 000:523.395 JLINK_HasError()
T3B60 000:523.481 JLINK_WriteReg(R0, 0x08000000)
T3B60 000:523.516 - 0.051ms returns 0
T3B60 000:523.547 JLINK_WriteReg(R1, 0x00000400)
T3B60 000:523.574 - 0.039ms returns 0
T3B60 000:523.600 JLINK_WriteReg(R2, 0x20000164)
T3B60 000:523.625 - 0.037ms returns 0
T3B60 000:523.652 JLINK_WriteReg(R3, 0x00000000)
T3B60 000:523.678 - 0.039ms returns 0
T3B60 000:523.706 JLINK_WriteReg(R4, 0x00000000)
T3B60 000:523.732 - 0.040ms returns 0
T3B60 000:523.763 JLINK_WriteReg(R5, 0x00000000)
T3B60 000:523.789 - 0.039ms returns 0
T3B60 000:523.816 JLINK_WriteReg(R6, 0x00000000)
T3B60 000:523.842 - 0.039ms returns 0
T3B60 000:523.870 JLINK_WriteReg(R7, 0x00000000)
T3B60 000:523.896 - 0.039ms returns 0
T3B60 000:523.926 JLINK_WriteReg(R8, 0x00000000)
T3B60 000:523.952 - 0.039ms returns 0
T3B60 000:523.983 JLINK_WriteReg(R9, 0x20000160)
T3B60 000:524.010 - 0.039ms returns 0
T3B60 000:524.037 JLINK_WriteReg(R10, 0x00000000)
T3B60 000:524.064 - 0.040ms returns 0
T3B60 000:524.092 JLINK_WriteReg(R11, 0x00000000)
T3B60 000:524.119 - 0.039ms returns 0
T3B60 000:524.147 JLINK_WriteReg(R12, 0x00000000)
T3B60 000:524.190 - 0.056ms returns 0
T3B60 000:524.218 JLINK_WriteReg(R13 (SP), 0x20001000)
T3B60 000:524.246 - 0.040ms returns 0
T3B60 000:524.274 JLINK_WriteReg(R14, 0x20000001)
T3B60 000:524.300 - 0.039ms returns 0
T3B60 000:524.328 JLINK_WriteReg(R15 (PC), 0x200000F4)
T3B60 000:524.355 - 0.040ms returns 0
T3B60 000:524.382 JLINK_WriteReg(XPSR, 0x01000000)
T3B60 000:524.410 - 0.040ms returns 0
T3B60 000:524.437 JLINK_WriteReg(MSP, 0x20001000)
T3B60 000:524.466 - 0.042ms returns 0
T3B60 000:524.494 JLINK_WriteReg(PSP, 0x20001000)
T3B60 000:524.519 - 0.041ms returns 0
T3B60 000:524.550 JLINK_WriteReg(CFBP, 0x00000000)
T3B60 000:524.579 - 0.050ms returns 0
T3B60 000:524.615 JLINK_SetBPEx(Addr = 0x20000000, Type = 0xFFFFFFF2)
T3B60 000:524.645 - 0.043ms returns 0x0000000E
T3B60 000:524.673 JLINK_Go()
T3B60 000:524.715   CPU_ReadMem(4 bytes @ 0xE0001000)
T3B60 000:527.449 - 2.805ms
T3B60 000:527.499 JLINK_IsHalted()
T3B60 000:527.993 - 0.514ms returns FALSE
T3B60 000:528.030 JLINK_HasError()
T3B60 000:533.766 JLINK_IsHalted()
T3B60 000:534.155 - 0.411ms returns FALSE
T3B60 000:534.192 JLINK_HasError()
T3B60 000:535.761 JLINK_IsHalted()
T3B60 000:536.107 - 0.359ms returns FALSE
T3B60 000:536.134 JLINK_HasError()
T3B60 000:537.712 JLINK_IsHalted()
T3B60 000:538.068 - 0.393ms returns FALSE
T3B60 000:538.121 JLINK_HasError()
T3B60 000:539.237 JLINK_IsHalted()
T3B60 000:539.660 - 0.437ms returns FALSE
T3B60 000:539.691 JLINK_HasError()
T3B60 000:541.335 JLINK_IsHalted()
T3B60 000:541.752 - 0.437ms returns FALSE
T3B60 000:541.790 JLINK_HasError()
T3B60 000:543.320 JLINK_IsHalted()
T3B60 000:543.727 - 0.416ms returns FALSE
T3B60 000:543.744 JLINK_HasError()
T3B60 000:545.272 JLINK_IsHalted()
T3B60 000:545.718 - 0.463ms returns FALSE
T3B60 000:545.753 JLINK_HasError()
T3B60 000:547.232 JLINK_IsHalted()
T3B60 000:547.750 - 0.534ms returns FALSE
T3B60 000:547.784 JLINK_HasError()
T3B60 000:549.316 JLINK_IsHalted()
T3B60 000:551.663   CPU_ReadMem(2 bytes @ 0x20000000)
T3B60 000:552.099 - 2.800ms returns TRUE
T3B60 000:552.136 JLINK_ReadReg(R15 (PC))
T3B60 000:552.169 - 0.048ms returns 0x20000000
T3B60 000:552.201 JLINK_ClrBPEx(BPHandle = 0x0000000E)
T3B60 000:552.233 - 0.046ms returns 0x00
T3B60 000:552.264 JLINK_ReadReg(R0)
T3B60 000:552.294 - 0.044ms returns 0x00000000
T3B60 000:552.731 JLINK_WriteMem(0x20000164, 0x29C Bytes, ...)
T3B60 000:552.746   Data:  57 FA 20 20 AD F8 00 00 10 20 8D F8 03 00 03 20 ...
T3B60 000:552.768   CPU_WriteMem(668 bytes @ 0x20000164)
T3B60 000:557.105 - 4.393ms returns 0x29C
T3B60 000:557.143 JLINK_WriteMem(0x20000400, 0x164 Bytes, ...)
T3B60 000:557.180   Data:  19 F8 0A 00 20 38 C5 B2 78 2F 04 DD 00 27 08 F1 ...
T3B60 000:557.234   CPU_WriteMem(356 bytes @ 0x20000400)
T3B60 000:559.968 - 2.834ms returns 0x164
T3B60 000:559.985 JLINK_HasError()
T3B60 000:559.998 JLINK_WriteReg(R0, 0x08000400)
T3B60 000:560.012 - 0.021ms returns 0
T3B60 000:560.027 JLINK_WriteReg(R1, 0x00000400)
T3B60 000:560.038 - 0.016ms returns 0
T3B60 000:560.050 JLINK_WriteReg(R2, 0x20000164)
T3B60 000:560.061 - 0.016ms returns 0
T3B60 000:560.072 JLINK_WriteReg(R3, 0x00000000)
T3B60 000:560.083 - 0.016ms returns 0
T3B60 000:560.095 JLINK_WriteReg(R4, 0x00000000)
T3B60 000:560.106 - 0.016ms returns 0
T3B60 000:560.117 JLINK_WriteReg(R5, 0x00000000)
T3B60 000:560.133 - 0.021ms returns 0
T3B60 000:560.145 JLINK_WriteReg(R6, 0x00000000)
T3B60 000:560.155 - 0.016ms returns 0
T3B60 000:560.167 JLINK_WriteReg(R7, 0x00000000)
T3B60 000:560.178 - 0.016ms returns 0
T3B60 000:560.190 JLINK_WriteReg(R8, 0x00000000)
T3B60 000:560.201 - 0.018ms returns 0
T3B60 000:560.214 JLINK_WriteReg(R9, 0x20000160)
T3B60 000:560.225 - 0.016ms returns 0
